
T1A84 000:047 SEGGER J-Link V6.12a Log File (0000ms, 0029ms total)
T1A84 000:047 DLL Compiled: Dec  2 2016 16:44:26 (0000ms, 0029ms total)
T1A84 000:047 Logging started @ 2021-05-30 11:43 (0000ms, 0029ms total)
T1A84 000:048 JLINK_SetWarnOutHandler(...) (0000ms, 0029ms total)
T1A84 000:048 JLINK_OpenEx(...)
Firmware: J-Link ARM-OB STM32 compiled Aug 22 2012 19:52:04
Hardware: V7.00
S/N: 20090928
Feature(s): RDI,FlashDL,FlashBP,JFlash,GDBFullWEBSRV Webserver running on local port 19080 (0012ms, 0041ms total)
T1A84 000:048   returns O.K. (0012ms, 0041ms total)
T1A84 000:060 JLINK_SetErrorOutHandler(...) (0000ms, 0041ms total)
T1A84 000:060 JLINK_ExecCommand("ProjectFile = "F:\工作\项目\蓝牙协议栈开发-blue-angel\blue_angel\bluetooth_basic_v0.1\Project\MDK-ARM(uV4)\JLinkSettings.ini"", ...). C:\Program Files (x86)\SEGGER\JLink_V612a\JLinkDevices.xml evaluated successfully.  returns 0x00 (0105ms, 0146ms total)
T1A84 000:165 JLINK_ExecCommand("Device = STM32F103ZE", ...). Device "STM32F103ZE" selected.  returns 0x00 (0001ms, 0147ms total)
T1A84 000:166 JLINK_ExecCommand("DisableConnectionTimeout", ...).   returns 0x01 (0000ms, 0147ms total)
T1A84 000:166 JLINK_GetHardwareVersion()  returns 0x11170 (0000ms, 0147ms total)
T1A84 000:166 JLINK_GetDLLVersion()  returns 61201 (0000ms, 0147ms total)
T1A84 000:166 JLINK_GetFirmwareString(...) (0000ms, 0147ms total)
T1A84 000:166 JLINK_GetDLLVersion()  returns 61201 (0000ms, 0147ms total)
T1A84 000:166 JLINK_GetCompileDateTime() (0000ms, 0147ms total)
T1A84 000:166 JLINK_GetFirmwareString(...) (0000ms, 0147ms total)
T1A84 000:166 JLINK_GetHardwareVersion()  returns 0x11170 (0000ms, 0147ms total)
T1A84 000:166 JLINK_TIF_Select(JLINKARM_TIF_SWD)  returns 0x00 (0001ms, 0148ms total)
T1A84 000:167 JLINK_SetSpeed(5000) (0001ms, 0149ms total)
T1A84 000:168 JLINK_GetId() >0x108 TIF>Found SWD-DP with ID 0x1BA01477 >0x0D TIF> >0x28 TIF> >0x0D TIF> >0x28 TIF> >0x0D TIF> >0x28 TIF> >0x0D TIF> >0x28 TIF> >0x0D TIF> >0x21 TIF> >0x0D TIF> >0x28 TIF> >0x0D TIF> >0x28 TIF> >0x0D TIF> >0x28 TIF> >0x0D TIF> >0x21 TIF> >0x0D TIF> >0x21 TIF> >0x0D TIF> >0x28 TIF> >0x0D TIF> >0x21 TIF> >0x0D TIF> >0x21 TIF> >0x0D TIF> >0x28 TIF> >0x0D TIF> >0x21 TIF> >0x0D TIF> >0x21 TIF> >0x0D TIF> >0x28 TIF> >0x0D TIF> >0x21 TIF> >0x0D TIF> >0x21 TIF> >0x0D TIF>
 >0x28 TIF> >0x0D TIF> >0x21 TIF> >0x0D TIF> >0x21 TIF> >0x0D TIF> >0x28 TIF> >0x0D TIF> >0x21 TIF> >0x0D TIF> >0x21 TIF> >0x0D TIF> >0x28 TIF> >0x0D TIF> >0x21 TIF> >0x0D TIF> >0x21 TIF> >0x108 TIF>Found SWD-DP with ID 0x1BA01477 >0x0D TIF> >0x28 TIF> >0x0D TIF> >0x28 TIF> >0x0D TIF> >0x28 TIF> >0x0D TIF> >0x28 TIF> >0x0D TIF> >0x21 TIF> >0x0D TIF> >0x28 TIF> >0x0D TIF> >0x28 TIF> >0x0D TIF> >0x21 TIF> >0x0D TIF> >0x21 TIF> >0x0D TIF> >0x21 TIF>AP-IDR: 0x14770011, Type: AHB-AP >0x0D TIF> >0x28 TIF>
 >0x0D TIF> >0x28 TIF> >0x0D TIF> >0x28 TIF> >0x0D TIF> >0x21 TIF> >0x0D TIF> >0x21 TIF> >0x0D TIF> >0x28 TIF> >0x0D TIF> >0x21 TIF> >0x0D TIF> >0x21 TIF>Found Cortex-M3 r1p1, Little endian. -- CPU_ReadMem(4 bytes @ 0xE000EDF0) -- CPU_ReadMem(4 bytes @ 0xE0002000)FPUnit: 6 code (BP) slots and 2 literal slots -- CPU_ReadMem(4 bytes @ 0xE000EDFC) -- CPU_ReadMem(4 bytes @ 0xE0001000) -- CPU_WriteMem(4 bytes @ 0xE0001000) -- CPU_ReadMem(4 bytes @ 0xE000ED88) -- CPU_WriteMem(4 bytes @ 0xE000ED88)
 -- CPU_ReadMem(4 bytes @ 0xE000ED88) -- CPU_WriteMem(4 bytes @ 0xE000ED88)CoreSight components:ROMTbl 0 @ E00FF000 -- CPU_ReadMem(16 bytes @ 0xE00FF000) -- CPU_ReadMem(16 bytes @ 0xE000EFF0) -- CPU_ReadMem(16 bytes @ 0xE000EFE0)ROMTbl 0 [0]: FFF0F000, CID: B105E00D, PID: 001BB000 SCS -- CPU_ReadMem(16 bytes @ 0xE0001FF0) -- CPU_ReadMem(16 bytes @ 0xE0001FE0)ROMTbl 0 [1]: FFF02000, CID: B105E00D, PID: 001BB002 DWT -- CPU_ReadMem(16 bytes @ 0xE0002FF0) -- CPU_ReadMem(16 bytes @ 0xE0002FE0)
ROMTbl 0 [2]: FFF03000, CID: B105E00D, PID: 000BB003 FPB -- CPU_ReadMem(16 bytes @ 0xE0000FF0) -- CPU_ReadMem(16 bytes @ 0xE0000FE0)ROMTbl 0 [3]: FFF01000, CID: B105E00D, PID: 001BB001 ITM -- CPU_ReadMem(16 bytes @ 0xE00FF010) -- CPU_ReadMem(16 bytes @ 0xE0040FF0) -- CPU_ReadMem(16 bytes @ 0xE0040FE0)ROMTbl 0 [4]: FFF41000, CID: B105900D, PID: 001BB923 TPIU-Lite -- CPU_ReadMem(16 bytes @ 0xE0041FF0) -- CPU_ReadMem(16 bytes @ 0xE0041FE0)ROMTbl 0 [5]: FFF42000, CID: B105900D, PID: 101BB924 ETM-M3
 >0x0D TIF> >0x21 TIF>  returns 0x1BA01477 (0071ms, 0220ms total)
T1A84 000:239 JLINK_GetDLLVersion()  returns 61201 (0000ms, 0220ms total)
T1A84 000:239 JLINK_CORE_GetFound()  returns 0x30000FF (0000ms, 0220ms total)
T1A84 000:239 JLINK_GetDebugInfo(0x100) -- Value=0xE00FF000  returns 0x00 (0000ms, 0220ms total)
T1A84 000:239 JLINK_GetDebugInfo(0x100) -- Value=0xE00FF000  returns 0x00 (0000ms, 0220ms total)
T1A84 000:239 JLINK_GetDebugInfo(0x101) -- Value=0xE0041000  returns 0x00 (0000ms, 0220ms total)
T1A84 000:239 JLINK_GetDebugInfo(0x102) -- Value=0x00000000  returns 0x00 (0000ms, 0220ms total)
T1A84 000:239 JLINK_GetDebugInfo(0x103) -- Value=0xE0040000  returns 0x00 (0000ms, 0220ms total)
T1A84 000:239 JLINK_GetDebugInfo(0x104) -- Value=0xE0000000  returns 0x00 (0000ms, 0220ms total)
T1A84 000:239 JLINK_GetDebugInfo(0x105) -- Value=0xE0001000  returns 0x00 (0000ms, 0220ms total)
T1A84 000:239 JLINK_GetDebugInfo(0x106) -- Value=0xE0002000  returns 0x00 (0000ms, 0220ms total)
T1A84 000:239 JLINK_GetDebugInfo(0x107) -- Value=0xE000E000  returns 0x00 (0000ms, 0220ms total)
T1A84 000:239 JLINK_GetDebugInfo(0x10C) -- Value=0xE000EDF0  returns 0x00 (0000ms, 0220ms total)
T1A84 000:239 JLINK_ReadMemU32(0xE000ED00, 0x0001 Items, ...) -- CPU is running -- CPU_ReadMem(4 bytes @ 0xE000ED00) - Data: 31 C2 1F 41  returns 0x01 (0001ms, 0221ms total)
T1A84 000:240 JLINK_SetResetType(JLINKARM_CM3_RESET_TYPE_NORMAL)  returns JLINKARM_CM3_RESET_TYPE_NORMAL (0000ms, 0221ms total)
T1A84 000:240 JLINK_Reset() -- CPU is running -- CPU_WriteMem(4 bytes @ 0xE000EDF0) -- CPU is running -- CPU_WriteMem(4 bytes @ 0xE000EDFC) >0x35 TIF> -- CPU is running -- CPU_WriteMem(4 bytes @ 0xE000ED0C) -- CPU is running -- CPU_ReadMem(4 bytes @ 0xE000EDF0) -- CPU is running -- CPU_ReadMem(4 bytes @ 0xE000EDF0) -- CPU is running -- CPU_WriteMem(4 bytes @ 0xE000EDF0) -- CPU is running -- CPU_WriteMem(4 bytes @ 0xE000EDFC) -- CPU is running -- CPU_ReadMem(4 bytes @ 0xE000EDF0)
 -- CPU_WriteMem(4 bytes @ 0xE0002000) -- CPU_ReadMem(4 bytes @ 0xE000EDFC) -- CPU_ReadMem(4 bytes @ 0xE0001000) (0024ms, 0245ms total)
T1A84 000:264 JLINK_ReadReg(R15 (PC))  returns 0x080001E8 (0000ms, 0245ms total)
T1A84 000:264 JLINK_ReadReg(XPSR)  returns 0x01000000 (0000ms, 0245ms total)
T1A84 000:264 JLINK_Halt()  returns 0x00 (0000ms, 0245ms total)
T1A84 000:264 JLINK_IsHalted()  returns TRUE (0000ms, 0245ms total)
T1A84 000:264 JLINK_ReadMemU32(0xE000EDF0, 0x0001 Items, ...) -- CPU_ReadMem(4 bytes @ 0xE000EDF0) - Data: 03 00 03 00  returns 0x01 (0001ms, 0246ms total)
T1A84 000:265 JLINK_WriteU32(0xE000EDF0, 0xA05F0003) -- CPU_WriteMem(4 bytes @ 0xE000EDF0)  returns 0x00 (0001ms, 0247ms total)
T1A84 000:266 JLINK_WriteU32(0xE000EDFC, 0x01000000) -- CPU_WriteMem(4 bytes @ 0xE000EDFC)  returns 0x00 (0001ms, 0248ms total)
T1A84 000:267 JLINK_GetHWStatus(...)  returns 0x00 (0000ms, 0248ms total)
T1A84 000:267 JLINK_GetNumBPUnits(Type = 0xFFFFFF00)  returns 0x06 (0000ms, 0248ms total)
T1A84 000:267 JLINK_GetNumBPUnits(Type = 0xF0)  returns 0x2000 (0000ms, 0248ms total)
T1A84 000:267 JLINK_GetNumWPUnits()  returns 0x04 (0000ms, 0248ms total)
T1A84 000:267 JLINK_GetSpeed()  returns 0xFA0 (0000ms, 0248ms total)
T1A84 000:267 JLINK_ReadMemU32(0xE000E004, 0x0001 Items, ...) -- CPU_ReadMem(4 bytes @ 0xE000E004) - Data: 01 00 00 00  returns 0x01 (0000ms, 0248ms total)
T1A84 000:267 JLINK_ReadMemU32(0xE000E004, 0x0001 Items, ...) -- CPU_ReadMem(4 bytes @ 0xE000E004) - Data: 01 00 00 00  returns 0x01 (0002ms, 0250ms total)
T1A84 000:269 JLINK_WriteMem(0xE0001000, 0x001C Bytes, ...) - Data: 01 00 00 00 00 00 00 00 00 00 00 00 00 00 00 00 ... -- CPU_WriteMem(28 bytes @ 0xE0001000)  returns 0x1C (0001ms, 0251ms total)
T1A84 000:270 JLINK_ReadMem (0xE0001000, 0x001C Bytes, ...) -- CPU_ReadMem(28 bytes @ 0xE0001000) - Data: 01 00 00 40 00 00 00 00 00 00 00 00 00 00 00 00 ...  returns 0x00 (0002ms, 0253ms total)
T1A84 000:272 JLINK_ReadReg(R15 (PC))  returns 0x080001E8 (0000ms, 0253ms total)
T1A84 000:272 JLINK_ReadReg(XPSR)  returns 0x01000000 (0000ms, 0253ms total)
T1A84 000:379 JLINK_SetResetType(JLINKARM_CM3_RESET_TYPE_NORMAL)  returns JLINKARM_CM3_RESET_TYPE_NORMAL (0000ms, 0253ms total)
T1A84 000:379 JLINK_Reset() -- CPU_WriteMem(4 bytes @ 0xE000EDF0) -- CPU_WriteMem(4 bytes @ 0xE000EDFC) >0x35 TIF> -- CPU_WriteMem(4 bytes @ 0xE000ED0C) -- CPU_ReadMem(4 bytes @ 0xE000EDF0) -- CPU_ReadMem(4 bytes @ 0xE000EDF0) -- CPU_WriteMem(4 bytes @ 0xE000EDF0) -- CPU_WriteMem(4 bytes @ 0xE000EDFC) -- CPU is running -- CPU_ReadMem(4 bytes @ 0xE000EDF0) -- CPU_WriteMem(4 bytes @ 0xE0002000) -- CPU_ReadMem(4 bytes @ 0xE000EDFC) -- CPU_ReadMem(4 bytes @ 0xE0001000) (0024ms, 0277ms total)
T1A84 000:403 JLINK_ReadReg(R15 (PC))  returns 0x080001E8 (0000ms, 0277ms total)
T1A84 000:403 JLINK_ReadReg(XPSR)  returns 0x01000000 (0000ms, 0277ms total)
T1A84 000:404 JLINK_ReadMem (0x080001E8, 0x003C Bytes, ...) -- CPU_ReadMem(128 bytes @ 0x080001C0) -- Updating C cache (128 bytes @ 0x080001C0) -- Read from C cache (60 bytes @ 0x080001E8) - Data: 06 48 80 47 06 48 00 47 FE E7 FE E7 FE E7 FE E7 ...  returns 0x00 (0003ms, 0280ms total)
T1A84 001:696 JLINK_ReadMem (0xE000ED04, 0x00B8 Bytes, ...) -- CPU_ReadMem(184 bytes @ 0xE000ED04) - Data: 00 00 00 00 00 00 00 00 00 00 05 FA 00 00 00 00 ...  returns 0x00 (0002ms, 0282ms total)
T1A84 001:700 JLINK_ReadMem (0xE000ED04, 0x00B8 Bytes, ...) -- CPU_ReadMem(184 bytes @ 0xE000ED04) - Data: 00 00 00 00 00 00 00 00 00 00 05 FA 00 00 00 00 ...  returns 0x00 (0002ms, 0284ms total)
T0E24 001:717 JLINK_SetBPEx(Addr = 0x08005840, Type = 0xFFFFFFF2)  returns 0x00000001 (0000ms, 0284ms total)
T0E24 001:717 JLINK_SetBPEx(Addr = 0x08003F48, Type = 0xFFFFFFF2)  returns 0x00000002 (0000ms, 0284ms total)
T0E24 001:717 JLINK_Go() -- CPU_WriteMem(4 bytes @ 0xE0002000) -- CPU_WriteMem(4 bytes @ 0xE0002000) -- CPU_ReadMem(4 bytes @ 0xE0001000) -- CPU_WriteMem(4 bytes @ 0xE0002008) -- CPU_WriteMem(4 bytes @ 0xE000200C) -- CPU_WriteMem(4 bytes @ 0xE0002010) -- CPU_WriteMem(4 bytes @ 0xE0002014) -- CPU_WriteMem(4 bytes @ 0xE0002018) -- CPU_WriteMem(4 bytes @ 0xE000201C) -- CPU_WriteMem(4 bytes @ 0xE0001004) (0007ms, 0291ms total)
T0E24 001:825 JLINK_IsHalted()  returns TRUE (0004ms, 0295ms total)
T0E24 001:829 JLINK_Halt()  returns 0x00 (0000ms, 0291ms total)
T0E24 001:829 JLINK_IsHalted()  returns TRUE (0000ms, 0291ms total)
T0E24 001:829 JLINK_IsHalted()  returns TRUE (0000ms, 0291ms total)
T0E24 001:829 JLINK_IsHalted()  returns TRUE (0000ms, 0291ms total)
T0E24 001:829 JLINK_ReadReg(R15 (PC))  returns 0x08005840 (0000ms, 0291ms total)
T0E24 001:829 JLINK_ReadReg(XPSR)  returns 0x61000000 (0000ms, 0291ms total)
T0E24 001:829 JLINK_ClrBPEx(BPHandle = 0x00000001)  returns 0x00 (0000ms, 0291ms total)
T0E24 001:829 JLINK_ClrBPEx(BPHandle = 0x00000002)  returns 0x00 (0000ms, 0291ms total)
T0E24 001:829 JLINK_ReadMemU32(0xE000ED30, 0x0001 Items, ...) -- CPU_ReadMem(4 bytes @ 0xE000ED30) - Data: 03 00 00 00  returns 0x01 (0001ms, 0292ms total)
T0E24 001:830 JLINK_ReadMemU32(0xE0001028, 0x0001 Items, ...) -- CPU_ReadMem(4 bytes @ 0xE0001028) - Data: 00 00 00 00  returns 0x01 (0000ms, 0292ms total)
T0E24 001:830 JLINK_ReadMemU32(0xE0001038, 0x0001 Items, ...) -- CPU_ReadMem(4 bytes @ 0xE0001038) - Data: 00 02 00 00  returns 0x01 (0001ms, 0293ms total)
T0E24 001:831 JLINK_ReadMemU32(0xE0001048, 0x0001 Items, ...) -- CPU_ReadMem(4 bytes @ 0xE0001048) - Data: 00 00 00 00  returns 0x01 (0001ms, 0294ms total)
T0E24 001:832 JLINK_ReadMemU32(0xE0001058, 0x0001 Items, ...) -- CPU_ReadMem(4 bytes @ 0xE0001058) - Data: 00 00 00 00  returns 0x01 (0001ms, 0295ms total)
T0E24 001:833 JLINK_ReadReg(R0)  returns 0x08005841 (0000ms, 0295ms total)
T0E24 001:833 JLINK_ReadReg(R1)  returns 0x200090F0 (0000ms, 0295ms total)
T0E24 001:833 JLINK_ReadReg(R2)  returns 0x00000000 (0000ms, 0295ms total)
T0E24 001:833 JLINK_ReadReg(R3)  returns 0x08002EC5 (0000ms, 0295ms total)
T0E24 001:833 JLINK_ReadReg(R4)  returns 0x08008000 (0000ms, 0295ms total)
T0E24 001:833 JLINK_ReadReg(R5)  returns 0x08008000 (0000ms, 0295ms total)
T0E24 001:833 JLINK_ReadReg(R6)  returns 0x00000000 (0000ms, 0295ms total)
T0E24 001:833 JLINK_ReadReg(R7)  returns 0x00000000 (0000ms, 0295ms total)
T0E24 001:833 JLINK_ReadReg(R8)  returns 0x00000000 (0000ms, 0295ms total)
T0E24 001:833 JLINK_ReadReg(R9)  returns 0x00000000 (0000ms, 0295ms total)
T0E24 001:833 JLINK_ReadReg(R10)  returns 0x00000000 (0000ms, 0295ms total)
T0E24 001:833 JLINK_ReadReg(R11)  returns 0x00000000 (0000ms, 0295ms total)
T0E24 001:833 JLINK_ReadReg(R12)  returns 0x00000000 (0000ms, 0295ms total)
T0E24 001:833 JLINK_ReadReg(R13 (SP))  returns 0x200090F0 (0000ms, 0295ms total)
T0E24 001:833 JLINK_ReadReg(R14)  returns 0x08000809 (0000ms, 0295ms total)
T0E24 001:833 JLINK_ReadReg(R15 (PC))  returns 0x08005840 (0000ms, 0295ms total)
T0E24 001:833 JLINK_ReadReg(XPSR)  returns 0x61000000 (0000ms, 0295ms total)
T0E24 001:833 JLINK_ReadReg(MSP)  returns 0x200090F0 (0000ms, 0295ms total)
T0E24 001:833 JLINK_ReadReg(PSP)  returns 0x20003060 (0000ms, 0295ms total)
T0E24 001:833 JLINK_ReadReg(CFBP)  returns 0x00000000 (0000ms, 0295ms total)
T1A84 001:836 JLINK_ReadMem (0xE000ED04, 0x00B8 Bytes, ...) -- CPU_ReadMem(184 bytes @ 0xE000ED04) - Data: 00 00 00 00 00 00 00 08 00 00 05 FA 00 00 00 00 ...  returns 0x00 (0002ms, 0297ms total)
T1A84 001:842 JLINK_ReadMem (0x08005840, 0x003C Bytes, ...) -- CPU_ReadMem(64 bytes @ 0x08005840) -- Updating C cache (64 bytes @ 0x08005840) -- Read from C cache (60 bytes @ 0x08005840) - Data: 01 20 80 F3 10 88 00 BF FE F7 BE F9 FE F7 40 FD ...  returns 0x00 (0001ms, 0298ms total)
T1A84 017:680 JLINK_SetResetType(JLINKARM_CM3_RESET_TYPE_NORMAL)  returns JLINKARM_CM3_RESET_TYPE_NORMAL (0000ms, 0298ms total)
T1A84 017:680 JLINK_Reset() -- CPU_WriteMem(4 bytes @ 0xE000EDF0) -- CPU_WriteMem(4 bytes @ 0xE000EDFC) >0x35 TIF> -- CPU_WriteMem(4 bytes @ 0xE000ED0C) -- CPU_ReadMem(4 bytes @ 0xE000EDF0) -- CPU_ReadMem(4 bytes @ 0xE000EDF0) -- CPU_WriteMem(4 bytes @ 0xE000EDF0) -- CPU_WriteMem(4 bytes @ 0xE000EDFC) -- CPU is running -- CPU_ReadMem(4 bytes @ 0xE000EDF0) -- CPU_WriteMem(4 bytes @ 0xE0002000) -- CPU_ReadMem(4 bytes @ 0xE000EDFC) -- CPU_ReadMem(4 bytes @ 0xE0001000) (0025ms, 0323ms total)
T1A84 017:705 JLINK_ReadReg(R15 (PC))  returns 0x080001E8 (0000ms, 0323ms total)
T1A84 017:705 JLINK_ReadReg(XPSR)  returns 0x01000000 (0000ms, 0323ms total)
T1A84 017:705 JLINK_ReadMem (0xE000ED04, 0x00B8 Bytes, ...) -- CPU_ReadMem(184 bytes @ 0xE000ED04) - Data: 00 00 00 00 00 00 00 00 00 00 05 FA 00 00 00 00 ...  returns 0x00 (0003ms, 0326ms total)
T1A84 017:712 JLINK_ReadMem (0x080001E8, 0x003C Bytes, ...) -- CPU_ReadMem(128 bytes @ 0x080001C0) -- Updating C cache (128 bytes @ 0x080001C0) -- Read from C cache (60 bytes @ 0x080001E8) - Data: 06 48 80 47 06 48 00 47 FE E7 FE E7 FE E7 FE E7 ...  returns 0x00 (0002ms, 0328ms total)
T0E24 019:031 JLINK_SetBPEx(Addr = 0x08003F48, Type = 0xFFFFFFF2)  returns 0x00000003 (0000ms, 0328ms total)
T0E24 019:031 JLINK_Go() -- CPU_WriteMem(4 bytes @ 0xE0002000) -- CPU_ReadMem(4 bytes @ 0xE0001000) -- CPU_WriteMem(4 bytes @ 0xE0002008) -- CPU_WriteMem(4 bytes @ 0xE000200C) -- CPU_WriteMem(4 bytes @ 0xE0002010) -- CPU_WriteMem(4 bytes @ 0xE0002014) -- CPU_WriteMem(4 bytes @ 0xE0002018) -- CPU_WriteMem(4 bytes @ 0xE000201C) -- CPU_WriteMem(4 bytes @ 0xE0001004) (0007ms, 0335ms total)
T0E24 019:139 JLINK_IsHalted()  returns FALSE (0001ms, 0336ms total)
T0E24 019:241 JLINK_IsHalted()  returns FALSE (0001ms, 0336ms total)
T0E24 019:343 JLINK_IsHalted()  returns TRUE (0004ms, 0339ms total)
T0E24 019:347 JLINK_Halt()  returns 0x00 (0000ms, 0335ms total)
T0E24 019:347 JLINK_IsHalted()  returns TRUE (0000ms, 0335ms total)
T0E24 019:347 JLINK_IsHalted()  returns TRUE (0000ms, 0335ms total)
T0E24 019:347 JLINK_IsHalted()  returns TRUE (0000ms, 0335ms total)
T0E24 019:347 JLINK_ReadReg(R15 (PC))  returns 0x08003F48 (0000ms, 0335ms total)
T0E24 019:347 JLINK_ReadReg(XPSR)  returns 0x01000036 (0000ms, 0335ms total)
T0E24 019:347 JLINK_ClrBPEx(BPHandle = 0x00000003)  returns 0x00 (0000ms, 0335ms total)
T0E24 019:347 JLINK_ReadMemU32(0xE000ED30, 0x0001 Items, ...) -- CPU_ReadMem(4 bytes @ 0xE000ED30) - Data: 03 00 00 00  returns 0x01 (0001ms, 0336ms total)
T0E24 019:348 JLINK_ReadMemU32(0xE0001028, 0x0001 Items, ...) -- CPU_ReadMem(4 bytes @ 0xE0001028) - Data: 00 00 00 00  returns 0x01 (0001ms, 0337ms total)
T0E24 019:349 JLINK_ReadMemU32(0xE0001038, 0x0001 Items, ...) -- CPU_ReadMem(4 bytes @ 0xE0001038) - Data: 00 02 00 00  returns 0x01 (0001ms, 0338ms total)
T0E24 019:350 JLINK_ReadMemU32(0xE0001048, 0x0001 Items, ...) -- CPU_ReadMem(4 bytes @ 0xE0001048) - Data: 00 00 00 00  returns 0x01 (0001ms, 0339ms total)
T0E24 019:351 JLINK_ReadMemU32(0xE0001058, 0x0001 Items, ...) -- CPU_ReadMem(4 bytes @ 0xE0001058) - Data: 00 00 00 00  returns 0x01 (0001ms, 0340ms total)
T0E24 019:352 JLINK_ReadReg(R0)  returns 0x00000004 (0000ms, 0340ms total)
T0E24 019:352 JLINK_ReadReg(R1)  returns 0x08003F45 (0001ms, 0341ms total)
T0E24 019:353 JLINK_ReadReg(R2)  returns 0x00000000 (0000ms, 0341ms total)
T0E24 019:353 JLINK_ReadReg(R3)  returns 0x00000000 (0000ms, 0341ms total)
T0E24 019:353 JLINK_ReadReg(R4)  returns 0x00000004 (0000ms, 0341ms total)
T0E24 019:353 JLINK_ReadReg(R5)  returns 0x00000004 (0000ms, 0341ms total)
T0E24 019:353 JLINK_ReadReg(R6)  returns 0x00000000 (0000ms, 0341ms total)
T0E24 019:353 JLINK_ReadReg(R7)  returns 0x00000000 (0000ms, 0341ms total)
T0E24 019:353 JLINK_ReadReg(R8)  returns 0x00000000 (0000ms, 0341ms total)
T0E24 019:353 JLINK_ReadReg(R9)  returns 0x00000000 (0000ms, 0341ms total)
T0E24 019:353 JLINK_ReadReg(R10)  returns 0x00000000 (0000ms, 0341ms total)
T0E24 019:353 JLINK_ReadReg(R11)  returns 0x00000000 (0000ms, 0341ms total)
T0E24 019:353 JLINK_ReadReg(R12)  returns 0x00000000 (0000ms, 0341ms total)
T0E24 019:353 JLINK_ReadReg(R13 (SP))  returns 0x200090B0 (0000ms, 0341ms total)
T0E24 019:353 JLINK_ReadReg(R14)  returns 0x08002CA1 (0000ms, 0341ms total)
T0E24 019:353 JLINK_ReadReg(R15 (PC))  returns 0x08003F48 (0000ms, 0341ms total)
T0E24 019:353 JLINK_ReadReg(XPSR)  returns 0x01000036 (0000ms, 0341ms total)
T0E24 019:353 JLINK_ReadReg(MSP)  returns 0x200090B0 (0000ms, 0341ms total)
T0E24 019:353 JLINK_ReadReg(PSP)  returns 0x20003040 (0000ms, 0341ms total)
T0E24 019:353 JLINK_ReadReg(CFBP)  returns 0x00000000 (0000ms, 0341ms total)
T1A84 019:354 JLINK_ReadMem (0x200090B4, 0x0004 Bytes, ...) -- CPU_ReadMem(64 bytes @ 0x20009080) -- Updating C cache (64 bytes @ 0x20009080) -- Read from C cache (4 bytes @ 0x200090B4) - Data: A1 2C 00 08  returns 0x00 (0001ms, 0342ms total)
T1A84 019:357 JLINK_ReadMem (0x200090B0, 0x0004 Bytes, ...) -- Read from C cache (4 bytes @ 0x200090B0) - Data: A0 0A 00 20  returns 0x00 (0000ms, 0342ms total)
T1A84 019:357 JLINK_ReadMem (0x200090C4, 0x0004 Bytes, ...) -- CPU_ReadMem(64 bytes @ 0x200090C0) -- Updating C cache (64 bytes @ 0x200090C0) -- Read from C cache (4 bytes @ 0x200090C4) - Data: 79 26 00 08  returns 0x00 (0001ms, 0343ms total)
T1A84 019:358 JLINK_ReadMem (0x200090B8, 0x0004 Bytes, ...) -- Read from C cache (4 bytes @ 0x200090B8) - Data: 00 00 00 00  returns 0x00 (0001ms, 0344ms total)
T1A84 019:359 JLINK_ReadMem (0x200090BC, 0x0004 Bytes, ...) -- Read from C cache (4 bytes @ 0x200090BC) - Data: 00 00 00 00  returns 0x00 (0000ms, 0344ms total)
T1A84 019:359 JLINK_ReadMem (0x200090C0, 0x0004 Bytes, ...) -- Read from C cache (4 bytes @ 0x200090C0) - Data: 00 00 00 00  returns 0x00 (0000ms, 0344ms total)
T1A84 019:359 JLINK_ReadMem (0x200090CC, 0x0004 Bytes, ...) -- Read from C cache (4 bytes @ 0x200090CC) - Data: FD FF FF FF  returns 0x00 (0000ms, 0344ms total)
T1A84 019:359 JLINK_ReadMem (0x20003058, 0x0004 Bytes, ...) -- CPU_ReadMem(64 bytes @ 0x20003040) -- Updating C cache (64 bytes @ 0x20003040) -- Read from C cache (4 bytes @ 0x20003058) - Data: 7A 5B 00 08  returns 0x00 (0001ms, 0345ms total)
T1A84 019:360 JLINK_ReadMem (0x2000305C, 0x0004 Bytes, ...) -- Read from C cache (4 bytes @ 0x2000305C) - Data: 00 00 00 61  returns 0x00 (0000ms, 0345ms total)
T1A84 019:360 JLINK_ReadMem (0x20003054, 0x0004 Bytes, ...) -- Read from C cache (4 bytes @ 0x20003054) - Data: 7F 5B 00 08  returns 0x00 (0000ms, 0345ms total)
T1A84 019:360 JLINK_ReadMem (0xE000ED28, 0x0004 Bytes, ...) -- CPU_ReadMem(4 bytes @ 0xE000ED28) - Data: 00 00 00 00  returns 0x00 (0001ms, 0346ms total)
T1A84 019:368 JLINK_ReadMem (0xE000ED04, 0x00B8 Bytes, ...) -- CPU_ReadMem(184 bytes @ 0xE000ED04) - Data: 36 68 43 00 00 00 00 08 00 03 05 FA 00 00 00 00 ...  returns 0x00 (0002ms, 0348ms total)
T1A84 019:377 JLINK_ReadMem (0x08003F48, 0x003C Bytes, ...) -- CPU_ReadMem(128 bytes @ 0x08003F40) -- Updating C cache (128 bytes @ 0x08003F40) -- Read from C cache (60 bytes @ 0x08003F48) - Data: 00 F0 96 FE 00 F0 99 FE 10 BD 70 B5 04 46 0D 46 ...  returns 0x00 (0002ms, 0350ms total)
T0E24 026:797 JLINK_Step() -- Read from C cache (2 bytes @ 0x08003F48) -- CPU_ReadMem(4 bytes @ 0xE000ED18) -- CPU_WriteMem(4 bytes @ 0xE000ED18) -- CPU_ReadMem(4 bytes @ 0xE000ED18) -- CPU_WriteMem(4 bytes @ 0xE000ED18) -- CPU_ReadMem(4 bytes @ 0xE0001004) -- Read from C cache (2 bytes @ 0x08003F4A) -- Simulated  returns 0x00 (0004ms, 0354ms total)
T0E24 026:801 JLINK_ReadReg(R15 (PC))  returns 0x08004C78 (0000ms, 0354ms total)
T0E24 026:801 JLINK_ReadReg(XPSR)  returns 0x01000036 (0000ms, 0354ms total)
T0E24 026:801 JLINK_SetBPEx(Addr = 0x08003F48, Type = 0xFFFFFFF2)  returns 0x00000004 (0000ms, 0354ms total)
T0E24 026:801 JLINK_Go() -- CPU_WriteMem(4 bytes @ 0xE0002000) -- CPU_ReadMem(4 bytes @ 0xE0001000) -- CPU_WriteMem(4 bytes @ 0xE0001004) (0004ms, 0358ms total)
T0E24 026:907 JLINK_IsHalted()  returns TRUE (0004ms, 0362ms total)
T0E24 026:911 JLINK_Halt()  returns 0x00 (0000ms, 0358ms total)
T0E24 026:911 JLINK_IsHalted()  returns TRUE (0000ms, 0358ms total)
T0E24 026:911 JLINK_IsHalted()  returns TRUE (0000ms, 0358ms total)
T0E24 026:911 JLINK_IsHalted()  returns TRUE (0000ms, 0358ms total)
T0E24 026:911 JLINK_ReadReg(R15 (PC))  returns 0x08003F48 (0000ms, 0358ms total)
T0E24 026:911 JLINK_ReadReg(XPSR)  returns 0x01000036 (0000ms, 0358ms total)
T0E24 026:911 JLINK_ClrBPEx(BPHandle = 0x00000004)  returns 0x00 (0000ms, 0358ms total)
T0E24 026:911 JLINK_ReadMemU32(0xE000ED30, 0x0001 Items, ...) -- CPU_ReadMem(4 bytes @ 0xE000ED30) - Data: 03 00 00 00  returns 0x01 (0001ms, 0359ms total)
T0E24 026:912 JLINK_ReadMemU32(0xE0001028, 0x0001 Items, ...) -- CPU_ReadMem(4 bytes @ 0xE0001028) - Data: 00 00 00 00  returns 0x01 (0001ms, 0360ms total)
T0E24 026:913 JLINK_ReadMemU32(0xE0001038, 0x0001 Items, ...) -- CPU_ReadMem(4 bytes @ 0xE0001038) - Data: 00 02 00 00  returns 0x01 (0001ms, 0361ms total)
T0E24 026:914 JLINK_ReadMemU32(0xE0001048, 0x0001 Items, ...) -- CPU_ReadMem(4 bytes @ 0xE0001048) - Data: 00 00 00 00  returns 0x01 (0001ms, 0362ms total)
T0E24 026:915 JLINK_ReadMemU32(0xE0001058, 0x0001 Items, ...) -- CPU_ReadMem(4 bytes @ 0xE0001058) - Data: 00 00 00 00  returns 0x01 (0001ms, 0363ms total)
T0E24 026:916 JLINK_ReadReg(R0)  returns 0x0000000F (0000ms, 0363ms total)
T0E24 026:916 JLINK_ReadReg(R1)  returns 0x08003F45 (0000ms, 0363ms total)
T0E24 026:916 JLINK_ReadReg(R2)  returns 0x00000000 (0000ms, 0363ms total)
T0E24 026:916 JLINK_ReadReg(R3)  returns 0x00000000 (0000ms, 0363ms total)
T0E24 026:916 JLINK_ReadReg(R4)  returns 0x0000000F (0000ms, 0363ms total)
T0E24 026:916 JLINK_ReadReg(R5)  returns 0x0000000F (0000ms, 0363ms total)
T0E24 026:916 JLINK_ReadReg(R6)  returns 0x00000000 (0000ms, 0363ms total)
T0E24 026:916 JLINK_ReadReg(R7)  returns 0x00000000 (0000ms, 0363ms total)
T0E24 026:916 JLINK_ReadReg(R8)  returns 0x00000000 (0000ms, 0363ms total)
T0E24 026:916 JLINK_ReadReg(R9)  returns 0x00000000 (0001ms, 0364ms total)
T0E24 026:917 JLINK_ReadReg(R10)  returns 0x00000000 (0000ms, 0364ms total)
T0E24 026:917 JLINK_ReadReg(R11)  returns 0x00000000 (0000ms, 0364ms total)
T0E24 026:917 JLINK_ReadReg(R12)  returns 0x00000000 (0000ms, 0364ms total)
T0E24 026:917 JLINK_ReadReg(R13 (SP))  returns 0x200090B0 (0000ms, 0364ms total)
T0E24 026:917 JLINK_ReadReg(R14)  returns 0x08002CA1 (0000ms, 0364ms total)
T0E24 026:917 JLINK_ReadReg(R15 (PC))  returns 0x08003F48 (0000ms, 0364ms total)
T0E24 026:917 JLINK_ReadReg(XPSR)  returns 0x01000036 (0000ms, 0364ms total)
T0E24 026:917 JLINK_ReadReg(MSP)  returns 0x200090B0 (0000ms, 0364ms total)
T0E24 026:917 JLINK_ReadReg(PSP)  returns 0x20003040 (0000ms, 0364ms total)
T0E24 026:917 JLINK_ReadReg(CFBP)  returns 0x00000000 (0000ms, 0364ms total)
T1A84 026:917 JLINK_ReadMem (0x200090B4, 0x0004 Bytes, ...) -- CPU_ReadMem(64 bytes @ 0x20009080) -- Updating C cache (64 bytes @ 0x20009080) -- Read from C cache (4 bytes @ 0x200090B4) - Data: A1 2C 00 08  returns 0x00 (0002ms, 0366ms total)
T1A84 026:919 JLINK_ReadMem (0x200090B0, 0x0004 Bytes, ...) -- Read from C cache (4 bytes @ 0x200090B0) - Data: A0 0A 00 20  returns 0x00 (0000ms, 0366ms total)
T1A84 026:919 JLINK_ReadMem (0x200090C4, 0x0004 Bytes, ...) -- CPU_ReadMem(64 bytes @ 0x200090C0) -- Updating C cache (64 bytes @ 0x200090C0) -- Read from C cache (4 bytes @ 0x200090C4) - Data: 79 26 00 08  returns 0x00 (0002ms, 0368ms total)
T1A84 026:921 JLINK_ReadMem (0x200090B8, 0x0004 Bytes, ...) -- Read from C cache (4 bytes @ 0x200090B8) - Data: 00 00 00 00  returns 0x00 (0000ms, 0368ms total)
T1A84 026:921 JLINK_ReadMem (0x200090BC, 0x0004 Bytes, ...) -- Read from C cache (4 bytes @ 0x200090BC) - Data: 00 00 00 00  returns 0x00 (0000ms, 0368ms total)
T1A84 026:921 JLINK_ReadMem (0x200090C0, 0x0004 Bytes, ...) -- Read from C cache (4 bytes @ 0x200090C0) - Data: 00 00 00 00  returns 0x00 (0000ms, 0368ms total)
T1A84 026:921 JLINK_ReadMem (0x200090CC, 0x0004 Bytes, ...) -- Read from C cache (4 bytes @ 0x200090CC) - Data: FD FF FF FF  returns 0x00 (0000ms, 0368ms total)
T1A84 026:921 JLINK_ReadMem (0x20003058, 0x0004 Bytes, ...) -- CPU_ReadMem(64 bytes @ 0x20003040) -- Updating C cache (64 bytes @ 0x20003040) -- Read from C cache (4 bytes @ 0x20003058) - Data: 7A 5B 00 08  returns 0x00 (0002ms, 0370ms total)
T1A84 026:923 JLINK_ReadMem (0x2000305C, 0x0004 Bytes, ...) -- Read from C cache (4 bytes @ 0x2000305C) - Data: 00 00 00 61  returns 0x00 (0000ms, 0370ms total)
T1A84 026:923 JLINK_ReadMem (0x20003054, 0x0004 Bytes, ...) -- Read from C cache (4 bytes @ 0x20003054) - Data: 7F 5B 00 08  returns 0x00 (0000ms, 0370ms total)
T1A84 026:923 JLINK_ReadMem (0xE000ED28, 0x0004 Bytes, ...) -- CPU_ReadMem(4 bytes @ 0xE000ED28) - Data: 00 00 00 00  returns 0x00 (0001ms, 0371ms total)
T1A84 026:926 JLINK_ReadMem (0xE000ED04, 0x00B8 Bytes, ...) -- CPU_ReadMem(184 bytes @ 0xE000ED04) - Data: 36 68 43 00 00 00 00 08 00 03 05 FA 00 00 00 00 ...  returns 0x00 (0003ms, 0374ms total)
T1A84 050:392 JLINK_ReadMem (0x08003F50, 0x003C Bytes, ...) -- CPU_ReadMem(128 bytes @ 0x08003F40) -- Updating C cache (128 bytes @ 0x08003F40) -- Read from C cache (60 bytes @ 0x08003F50) - Data: 10 BD 70 B5 04 46 0D 46 2A 46 21 46 01 20 01 F0 ...  returns 0x00 (0002ms, 0376ms total)
T0E24 051:518 JLINK_Step() -- Read from C cache (2 bytes @ 0x08003F48) -- CPU_ReadMem(4 bytes @ 0xE0001004) -- Read from C cache (2 bytes @ 0x08003F4A) -- Simulated  returns 0x00 (0002ms, 0378ms total)
T0E24 051:521 JLINK_ReadReg(R15 (PC))  returns 0x08004C78 (0000ms, 0379ms total)
T0E24 051:521 JLINK_ReadReg(XPSR)  returns 0x01000036 (0000ms, 0379ms total)
T0E24 051:521 JLINK_SetBPEx(Addr = 0x08003F48, Type = 0xFFFFFFF2)  returns 0x00000005 (0000ms, 0379ms total)
T0E24 051:521 JLINK_Go() -- CPU_WriteMem(4 bytes @ 0xE0002000) -- CPU_ReadMem(4 bytes @ 0xE0001000) -- CPU_WriteMem(4 bytes @ 0xE0001004) (0004ms, 0383ms total)
T0E24 051:626 JLINK_IsHalted()  returns TRUE (0004ms, 0387ms total)
T0E24 051:630 JLINK_Halt()  returns 0x00 (0000ms, 0383ms total)
T0E24 051:630 JLINK_IsHalted()  returns TRUE (0000ms, 0383ms total)
T0E24 051:630 JLINK_IsHalted()  returns TRUE (0000ms, 0383ms total)
T0E24 051:630 JLINK_IsHalted()  returns TRUE (0000ms, 0383ms total)
T0E24 051:630 JLINK_ReadReg(R15 (PC))  returns 0x08003F48 (0000ms, 0383ms total)
T0E24 051:630 JLINK_ReadReg(XPSR)  returns 0x01000036 (0000ms, 0383ms total)
T0E24 051:630 JLINK_ClrBPEx(BPHandle = 0x00000005)  returns 0x00 (0000ms, 0383ms total)
T0E24 051:630 JLINK_ReadMemU32(0xE000ED30, 0x0001 Items, ...) -- CPU_ReadMem(4 bytes @ 0xE000ED30) - Data: 03 00 00 00  returns 0x01 (0001ms, 0384ms total)
T0E24 051:631 JLINK_ReadMemU32(0xE0001028, 0x0001 Items, ...) -- CPU_ReadMem(4 bytes @ 0xE0001028) - Data: 00 00 00 00  returns 0x01 (0001ms, 0385ms total)
T0E24 051:632 JLINK_ReadMemU32(0xE0001038, 0x0001 Items, ...) -- CPU_ReadMem(4 bytes @ 0xE0001038) - Data: 00 02 00 00  returns 0x01 (0001ms, 0386ms total)
T0E24 051:633 JLINK_ReadMemU32(0xE0001048, 0x0001 Items, ...) -- CPU_ReadMem(4 bytes @ 0xE0001048) - Data: 00 00 00 00  returns 0x01 (0001ms, 0387ms total)
T0E24 051:634 JLINK_ReadMemU32(0xE0001058, 0x0001 Items, ...) -- CPU_ReadMem(4 bytes @ 0xE0001058) - Data: 00 00 00 00  returns 0x01 (0001ms, 0388ms total)
T0E24 051:635 JLINK_ReadReg(R0)  returns 0x00000004 (0000ms, 0388ms total)
T0E24 051:635 JLINK_ReadReg(R1)  returns 0x08003F45 (0000ms, 0388ms total)
T0E24 051:635 JLINK_ReadReg(R2)  returns 0x00000000 (0000ms, 0388ms total)
T0E24 051:635 JLINK_ReadReg(R3)  returns 0x00000000 (0000ms, 0388ms total)
T0E24 051:635 JLINK_ReadReg(R4)  returns 0x00000004 (0000ms, 0388ms total)
T0E24 051:635 JLINK_ReadReg(R5)  returns 0x00000004 (0000ms, 0388ms total)
T0E24 051:635 JLINK_ReadReg(R6)  returns 0x00000000 (0000ms, 0388ms total)
T0E24 051:635 JLINK_ReadReg(R7)  returns 0x00000000 (0000ms, 0388ms total)
T0E24 051:635 JLINK_ReadReg(R8)  returns 0x00000000 (0000ms, 0388ms total)
T0E24 051:635 JLINK_ReadReg(R9)  returns 0x00000000 (0001ms, 0389ms total)
T0E24 051:636 JLINK_ReadReg(R10)  returns 0x00000000 (0000ms, 0389ms total)
T0E24 051:636 JLINK_ReadReg(R11)  returns 0x00000000 (0000ms, 0389ms total)
T0E24 051:636 JLINK_ReadReg(R12)  returns 0x00000000 (0000ms, 0389ms total)
T0E24 051:636 JLINK_ReadReg(R13 (SP))  returns 0x200090B0 (0000ms, 0389ms total)
T0E24 051:636 JLINK_ReadReg(R14)  returns 0x08002CA1 (0000ms, 0389ms total)
T0E24 051:636 JLINK_ReadReg(R15 (PC))  returns 0x08003F48 (0000ms, 0389ms total)
T0E24 051:636 JLINK_ReadReg(XPSR)  returns 0x01000036 (0000ms, 0389ms total)
T0E24 051:636 JLINK_ReadReg(MSP)  returns 0x200090B0 (0000ms, 0389ms total)
T0E24 051:636 JLINK_ReadReg(PSP)  returns 0x20003040 (0000ms, 0389ms total)
T0E24 051:636 JLINK_ReadReg(CFBP)  returns 0x00000000 (0000ms, 0389ms total)
T1A84 051:636 JLINK_ReadMem (0x200090B4, 0x0004 Bytes, ...) -- CPU_ReadMem(64 bytes @ 0x20009080) -- Updating C cache (64 bytes @ 0x20009080) -- Read from C cache (4 bytes @ 0x200090B4) - Data: A1 2C 00 08  returns 0x00 (0002ms, 0391ms total)
T1A84 051:638 JLINK_ReadMem (0x200090B0, 0x0004 Bytes, ...) -- Read from C cache (4 bytes @ 0x200090B0) - Data: A0 0A 00 20  returns 0x00 (0000ms, 0391ms total)
T1A84 051:638 JLINK_ReadMem (0x200090C4, 0x0004 Bytes, ...) -- CPU_ReadMem(64 bytes @ 0x200090C0) -- Updating C cache (64 bytes @ 0x200090C0) -- Read from C cache (4 bytes @ 0x200090C4) - Data: 79 26 00 08  returns 0x00 (0001ms, 0392ms total)
T1A84 051:639 JLINK_ReadMem (0x200090B8, 0x0004 Bytes, ...) -- Read from C cache (4 bytes @ 0x200090B8) - Data: 00 00 00 00  returns 0x00 (0000ms, 0392ms total)
T1A84 051:639 JLINK_ReadMem (0x200090BC, 0x0004 Bytes, ...) -- Read from C cache (4 bytes @ 0x200090BC) - Data: 00 00 00 00  returns 0x00 (0001ms, 0393ms total)
T1A84 051:640 JLINK_ReadMem (0x200090C0, 0x0004 Bytes, ...) -- Read from C cache (4 bytes @ 0x200090C0) - Data: 00 00 00 00  returns 0x00 (0000ms, 0393ms total)
T1A84 051:640 JLINK_ReadMem (0x200090CC, 0x0004 Bytes, ...) -- Read from C cache (4 bytes @ 0x200090CC) - Data: FD FF FF FF  returns 0x00 (0000ms, 0393ms total)
T1A84 051:640 JLINK_ReadMem (0x20003058, 0x0004 Bytes, ...) -- CPU_ReadMem(64 bytes @ 0x20003040) -- Updating C cache (64 bytes @ 0x20003040) -- Read from C cache (4 bytes @ 0x20003058) - Data: 7A 5B 00 08  returns 0x00 (0001ms, 0394ms total)
T1A84 051:641 JLINK_ReadMem (0x2000305C, 0x0004 Bytes, ...) -- Read from C cache (4 bytes @ 0x2000305C) - Data: 00 00 00 61  returns 0x00 (0000ms, 0394ms total)
T1A84 051:641 JLINK_ReadMem (0x20003054, 0x0004 Bytes, ...) -- Read from C cache (4 bytes @ 0x20003054) - Data: 7F 5B 00 08  returns 0x00 (0000ms, 0394ms total)
T1A84 051:641 JLINK_ReadMem (0xE000ED28, 0x0004 Bytes, ...) -- CPU_ReadMem(4 bytes @ 0xE000ED28) - Data: 00 00 00 00  returns 0x00 (0001ms, 0395ms total)
T1A84 051:645 JLINK_ReadMem (0xE000ED04, 0x00B8 Bytes, ...) -- CPU_ReadMem(184 bytes @ 0xE000ED04) - Data: 36 68 43 00 00 00 00 08 00 03 05 FA 00 00 00 00 ...  returns 0x00 (0003ms, 0398ms total)
T1A84 051:653 JLINK_ReadMem (0x08003F48, 0x003C Bytes, ...) -- CPU_ReadMem(128 bytes @ 0x08003F40) -- Updating C cache (128 bytes @ 0x08003F40) -- Read from C cache (60 bytes @ 0x08003F48) - Data: 00 F0 96 FE 00 F0 99 FE 10 BD 70 B5 04 46 0D 46 ...  returns 0x00 (0003ms, 0401ms total)
T0E24 062:525 JLINK_Step() -- Read from C cache (2 bytes @ 0x08003F48) -- CPU_ReadMem(4 bytes @ 0xE0001004) -- Read from C cache (2 bytes @ 0x08003F4A) -- Simulated  returns 0x00 (0002ms, 0403ms total)
T0E24 062:527 JLINK_ReadReg(R15 (PC))  returns 0x08004C78 (0000ms, 0403ms total)
T0E24 062:527 JLINK_ReadReg(XPSR)  returns 0x01000036 (0000ms, 0403ms total)
T0E24 062:527 JLINK_SetBPEx(Addr = 0x08003F48, Type = 0xFFFFFFF2)  returns 0x00000006 (0000ms, 0403ms total)
T0E24 062:527 JLINK_Go() -- CPU_WriteMem(4 bytes @ 0xE0002000) -- CPU_ReadMem(4 bytes @ 0xE0001000) -- CPU_WriteMem(4 bytes @ 0xE0001004) (0005ms, 0408ms total)
T0E24 062:633 JLINK_IsHalted()  returns TRUE (0004ms, 0412ms total)
T0E24 062:637 JLINK_Halt()  returns 0x00 (0000ms, 0408ms total)
T0E24 062:637 JLINK_IsHalted()  returns TRUE (0000ms, 0408ms total)
T0E24 062:637 JLINK_IsHalted()  returns TRUE (0000ms, 0408ms total)
T0E24 062:637 JLINK_IsHalted()  returns TRUE (0000ms, 0408ms total)
T0E24 062:637 JLINK_ReadReg(R15 (PC))  returns 0x08003F48 (0000ms, 0408ms total)
T0E24 062:637 JLINK_ReadReg(XPSR)  returns 0x01000036 (0000ms, 0408ms total)
T0E24 062:637 JLINK_ClrBPEx(BPHandle = 0x00000006)  returns 0x00 (0000ms, 0408ms total)
T0E24 062:637 JLINK_ReadMemU32(0xE000ED30, 0x0001 Items, ...) -- CPU_ReadMem(4 bytes @ 0xE000ED30) - Data: 03 00 00 00  returns 0x01 (0001ms, 0409ms total)
T0E24 062:638 JLINK_ReadMemU32(0xE0001028, 0x0001 Items, ...) -- CPU_ReadMem(4 bytes @ 0xE0001028) - Data: 00 00 00 00  returns 0x01 (0001ms, 0410ms total)
T0E24 062:639 JLINK_ReadMemU32(0xE0001038, 0x0001 Items, ...) -- CPU_ReadMem(4 bytes @ 0xE0001038) - Data: 00 02 00 00  returns 0x01 (0001ms, 0411ms total)
T0E24 062:640 JLINK_ReadMemU32(0xE0001048, 0x0001 Items, ...) -- CPU_ReadMem(4 bytes @ 0xE0001048) - Data: 00 00 00 00  returns 0x01 (0001ms, 0412ms total)
T0E24 062:642 JLINK_ReadMemU32(0xE0001058, 0x0001 Items, ...) -- CPU_ReadMem(4 bytes @ 0xE0001058) - Data: 00 00 00 00  returns 0x01 (0000ms, 0412ms total)
T0E24 062:643 JLINK_ReadReg(R0)  returns 0x00000000 (0000ms, 0412ms total)
T0E24 062:643 JLINK_ReadReg(R1)  returns 0x08003F45 (0000ms, 0412ms total)
T0E24 062:643 JLINK_ReadReg(R2)  returns 0x00000000 (0000ms, 0412ms total)
T0E24 062:643 JLINK_ReadReg(R3)  returns 0x00000000 (0000ms, 0412ms total)
T0E24 062:643 JLINK_ReadReg(R4)  returns 0x00000000 (0000ms, 0412ms total)
T0E24 062:643 JLINK_ReadReg(R5)  returns 0x00000000 (0000ms, 0412ms total)
T0E24 062:643 JLINK_ReadReg(R6)  returns 0x00000000 (0000ms, 0412ms total)
T0E24 062:643 JLINK_ReadReg(R7)  returns 0x00000000 (0000ms, 0412ms total)
T0E24 062:643 JLINK_ReadReg(R8)  returns 0x00000000 (0000ms, 0412ms total)
T0E24 062:643 JLINK_ReadReg(R9)  returns 0x00000000 (0000ms, 0412ms total)
T0E24 062:643 JLINK_ReadReg(R10)  returns 0x00000000 (0000ms, 0412ms total)
T0E24 062:643 JLINK_ReadReg(R11)  returns 0x00000000 (0000ms, 0412ms total)
T0E24 062:643 JLINK_ReadReg(R12)  returns 0x00000000 (0000ms, 0412ms total)
T0E24 062:643 JLINK_ReadReg(R13 (SP))  returns 0x200090B0 (0000ms, 0412ms total)
T0E24 062:643 JLINK_ReadReg(R14)  returns 0x08002CA1 (0000ms, 0412ms total)
T0E24 062:643 JLINK_ReadReg(R15 (PC))  returns 0x08003F48 (0000ms, 0412ms total)
T0E24 062:643 JLINK_ReadReg(XPSR)  returns 0x01000036 (0000ms, 0412ms total)
T0E24 062:643 JLINK_ReadReg(MSP)  returns 0x200090B0 (0000ms, 0412ms total)
T0E24 062:643 JLINK_ReadReg(PSP)  returns 0x20003040 (0000ms, 0412ms total)
T0E24 062:643 JLINK_ReadReg(CFBP)  returns 0x00000000 (0000ms, 0412ms total)
T1A84 062:644 JLINK_ReadMem (0x200090B4, 0x0004 Bytes, ...) -- CPU_ReadMem(64 bytes @ 0x20009080) -- Updating C cache (64 bytes @ 0x20009080) -- Read from C cache (4 bytes @ 0x200090B4) - Data: A1 2C 00 08  returns 0x00 (0001ms, 0413ms total)
T1A84 062:645 JLINK_ReadMem (0x200090B0, 0x0004 Bytes, ...) -- Read from C cache (4 bytes @ 0x200090B0) - Data: A0 0A 00 20  returns 0x00 (0000ms, 0413ms total)
T1A84 062:645 JLINK_ReadMem (0x200090C4, 0x0004 Bytes, ...) -- CPU_ReadMem(64 bytes @ 0x200090C0) -- Updating C cache (64 bytes @ 0x200090C0) -- Read from C cache (4 bytes @ 0x200090C4) - Data: 79 26 00 08  returns 0x00 (0002ms, 0415ms total)
T1A84 062:647 JLINK_ReadMem (0x200090B8, 0x0004 Bytes, ...) -- Read from C cache (4 bytes @ 0x200090B8) - Data: 00 00 00 00  returns 0x00 (0000ms, 0415ms total)
T1A84 062:647 JLINK_ReadMem (0x200090BC, 0x0004 Bytes, ...) -- Read from C cache (4 bytes @ 0x200090BC) - Data: 00 00 00 00  returns 0x00 (0000ms, 0415ms total)
T1A84 062:647 JLINK_ReadMem (0x200090C0, 0x0004 Bytes, ...) -- Read from C cache (4 bytes @ 0x200090C0) - Data: 00 00 00 00  returns 0x00 (0000ms, 0415ms total)
T1A84 062:647 JLINK_ReadMem (0x200090CC, 0x0004 Bytes, ...) -- Read from C cache (4 bytes @ 0x200090CC) - Data: FD FF FF FF  returns 0x00 (0000ms, 0415ms total)
T1A84 062:647 JLINK_ReadMem (0x20003058, 0x0004 Bytes, ...) -- CPU_ReadMem(64 bytes @ 0x20003040) -- Updating C cache (64 bytes @ 0x20003040) -- Read from C cache (4 bytes @ 0x20003058) - Data: 7A 5B 00 08  returns 0x00 (0002ms, 0417ms total)
T1A84 062:649 JLINK_ReadMem (0x2000305C, 0x0004 Bytes, ...) -- Read from C cache (4 bytes @ 0x2000305C) - Data: 00 00 00 61  returns 0x00 (0000ms, 0417ms total)
T1A84 062:649 JLINK_ReadMem (0x20003054, 0x0004 Bytes, ...) -- Read from C cache (4 bytes @ 0x20003054) - Data: 7F 5B 00 08  returns 0x00 (0000ms, 0417ms total)
T1A84 062:649 JLINK_ReadMem (0xE000ED28, 0x0004 Bytes, ...) -- CPU_ReadMem(4 bytes @ 0xE000ED28) - Data: 00 00 00 00  returns 0x00 (0001ms, 0418ms total)
T1A84 062:652 JLINK_ReadMem (0xE000ED04, 0x00B8 Bytes, ...) -- CPU_ReadMem(184 bytes @ 0xE000ED04) - Data: 36 68 43 00 00 00 00 08 00 03 05 FA 00 00 00 00 ...  returns 0x00 (0003ms, 0421ms total)
T0E24 071:266 JLINK_Step() -- CPU_ReadMem(64 bytes @ 0x08003F40) -- Updating C cache (64 bytes @ 0x08003F40) -- Read from C cache (2 bytes @ 0x08003F48) -- CPU_ReadMem(4 bytes @ 0xE0001004) -- Read from C cache (2 bytes @ 0x08003F4A) -- Simulated  returns 0x00 (0004ms, 0425ms total)
T0E24 071:270 JLINK_ReadReg(R15 (PC))  returns 0x08004C78 (0000ms, 0425ms total)
T0E24 071:270 JLINK_ReadReg(XPSR)  returns 0x01000036 (0000ms, 0425ms total)
T0E24 071:270 JLINK_SetBPEx(Addr = 0x08003F48, Type = 0xFFFFFFF2)  returns 0x00000007 (0000ms, 0425ms total)
T0E24 071:270 JLINK_Go() -- CPU_WriteMem(4 bytes @ 0xE0002000) -- CPU_ReadMem(4 bytes @ 0xE0001000) -- CPU_WriteMem(4 bytes @ 0xE0001004) (0005ms, 0430ms total)
T0E24 071:376 JLINK_IsHalted()  returns TRUE (0004ms, 0434ms total)
T0E24 071:380 JLINK_Halt()  returns 0x00 (0000ms, 0430ms total)
T0E24 071:380 JLINK_IsHalted()  returns TRUE (0000ms, 0430ms total)
T0E24 071:380 JLINK_IsHalted()  returns TRUE (0000ms, 0430ms total)
T0E24 071:380 JLINK_IsHalted()  returns TRUE (0000ms, 0430ms total)
T0E24 071:380 JLINK_ReadReg(R15 (PC))  returns 0x08003F48 (0000ms, 0430ms total)
T0E24 071:380 JLINK_ReadReg(XPSR)  returns 0x01000036 (0000ms, 0430ms total)
T0E24 071:380 JLINK_ClrBPEx(BPHandle = 0x00000007)  returns 0x00 (0000ms, 0430ms total)
T0E24 071:380 JLINK_ReadMemU32(0xE000ED30, 0x0001 Items, ...) -- CPU_ReadMem(4 bytes @ 0xE000ED30) - Data: 03 00 00 00  returns 0x01 (0001ms, 0431ms total)
T0E24 071:381 JLINK_ReadMemU32(0xE0001028, 0x0001 Items, ...) -- CPU_ReadMem(4 bytes @ 0xE0001028) - Data: 00 00 00 00  returns 0x01 (0001ms, 0432ms total)
T0E24 071:382 JLINK_ReadMemU32(0xE0001038, 0x0001 Items, ...) -- CPU_ReadMem(4 bytes @ 0xE0001038) - Data: 00 02 00 00  returns 0x01 (0001ms, 0433ms total)
T0E24 071:383 JLINK_ReadMemU32(0xE0001048, 0x0001 Items, ...) -- CPU_ReadMem(4 bytes @ 0xE0001048) - Data: 00 00 00 00  returns 0x01 (0001ms, 0434ms total)
T0E24 071:384 JLINK_ReadMemU32(0xE0001058, 0x0001 Items, ...) -- CPU_ReadMem(4 bytes @ 0xE0001058) - Data: 00 00 00 00  returns 0x01 (0001ms, 0435ms total)
T0E24 071:385 JLINK_ReadReg(R0)  returns 0x00000001 (0000ms, 0435ms total)
T0E24 071:385 JLINK_ReadReg(R1)  returns 0x08003F45 (0000ms, 0435ms total)
T0E24 071:385 JLINK_ReadReg(R2)  returns 0x00000000 (0000ms, 0435ms total)
T0E24 071:385 JLINK_ReadReg(R3)  returns 0x00000000 (0000ms, 0435ms total)
T0E24 071:385 JLINK_ReadReg(R4)  returns 0x00000001 (0000ms, 0435ms total)
T0E24 071:385 JLINK_ReadReg(R5)  returns 0x00000001 (0000ms, 0435ms total)
T0E24 071:385 JLINK_ReadReg(R6)  returns 0x00000000 (0000ms, 0435ms total)
T0E24 071:385 JLINK_ReadReg(R7)  returns 0x00000000 (0001ms, 0436ms total)
T0E24 071:386 JLINK_ReadReg(R8)  returns 0x00000000 (0000ms, 0436ms total)
T0E24 071:386 JLINK_ReadReg(R9)  returns 0x00000000 (0000ms, 0436ms total)
T0E24 071:386 JLINK_ReadReg(R10)  returns 0x00000000 (0000ms, 0436ms total)
T0E24 071:386 JLINK_ReadReg(R11)  returns 0x00000000 (0000ms, 0436ms total)
T0E24 071:386 JLINK_ReadReg(R12)  returns 0x00000000 (0000ms, 0436ms total)
T0E24 071:386 JLINK_ReadReg(R13 (SP))  returns 0x200090B0 (0000ms, 0436ms total)
T0E24 071:386 JLINK_ReadReg(R14)  returns 0x08002CA1 (0000ms, 0436ms total)
T0E24 071:386 JLINK_ReadReg(R15 (PC))  returns 0x08003F48 (0000ms, 0436ms total)
T0E24 071:386 JLINK_ReadReg(XPSR)  returns 0x01000036 (0000ms, 0436ms total)
T0E24 071:386 JLINK_ReadReg(MSP)  returns 0x200090B0 (0000ms, 0436ms total)
T0E24 071:386 JLINK_ReadReg(PSP)  returns 0x20003040 (0000ms, 0436ms total)
T0E24 071:386 JLINK_ReadReg(CFBP)  returns 0x00000000 (0000ms, 0436ms total)
T1A84 071:386 JLINK_ReadMem (0x200090B4, 0x0004 Bytes, ...) -- CPU_ReadMem(64 bytes @ 0x20009080) -- Updating C cache (64 bytes @ 0x20009080) -- Read from C cache (4 bytes @ 0x200090B4) - Data: A1 2C 00 08  returns 0x00 (0002ms, 0438ms total)
T1A84 071:388 JLINK_ReadMem (0x200090B0, 0x0004 Bytes, ...) -- Read from C cache (4 bytes @ 0x200090B0) - Data: A0 0A 00 20  returns 0x00 (0000ms, 0438ms total)
T1A84 071:388 JLINK_ReadMem (0x200090C4, 0x0004 Bytes, ...) -- CPU_ReadMem(64 bytes @ 0x200090C0) -- Updating C cache (64 bytes @ 0x200090C0) -- Read from C cache (4 bytes @ 0x200090C4) - Data: 79 26 00 08  returns 0x00 (0002ms, 0440ms total)
T1A84 071:390 JLINK_ReadMem (0x200090B8, 0x0004 Bytes, ...) -- Read from C cache (4 bytes @ 0x200090B8) - Data: 00 00 00 00  returns 0x00 (0000ms, 0440ms total)
T1A84 071:390 JLINK_ReadMem (0x200090BC, 0x0004 Bytes, ...) -- Read from C cache (4 bytes @ 0x200090BC) - Data: 00 00 00 00  returns 0x00 (0000ms, 0440ms total)
T1A84 071:390 JLINK_ReadMem (0x200090C0, 0x0004 Bytes, ...) -- Read from C cache (4 bytes @ 0x200090C0) - Data: 00 00 00 00  returns 0x00 (0000ms, 0440ms total)
T1A84 071:390 JLINK_ReadMem (0x200090CC, 0x0004 Bytes, ...) -- Read from C cache (4 bytes @ 0x200090CC) - Data: FD FF FF FF  returns 0x00 (0000ms, 0440ms total)
T1A84 071:390 JLINK_ReadMem (0x20003058, 0x0004 Bytes, ...) -- CPU_ReadMem(64 bytes @ 0x20003040) -- Updating C cache (64 bytes @ 0x20003040) -- Read from C cache (4 bytes @ 0x20003058) - Data: 7A 5B 00 08  returns 0x00 (0002ms, 0442ms total)
T1A84 071:392 JLINK_ReadMem (0x2000305C, 0x0004 Bytes, ...) -- Read from C cache (4 bytes @ 0x2000305C) - Data: 00 00 00 61  returns 0x00 (0000ms, 0442ms total)
T1A84 071:392 JLINK_ReadMem (0x20003054, 0x0004 Bytes, ...) -- Read from C cache (4 bytes @ 0x20003054) - Data: 7F 5B 00 08  returns 0x00 (0000ms, 0442ms total)
T1A84 071:392 JLINK_ReadMem (0xE000ED28, 0x0004 Bytes, ...) -- CPU_ReadMem(4 bytes @ 0xE000ED28) - Data: 00 00 00 00  returns 0x00 (0001ms, 0443ms total)
T1A84 071:395 JLINK_ReadMem (0xE000ED04, 0x00B8 Bytes, ...) -- CPU_ReadMem(184 bytes @ 0xE000ED04) - Data: 36 68 43 00 00 00 00 08 00 03 05 FA 00 00 00 00 ...  returns 0x00 (0003ms, 0446ms total)
T0E24 074:081 JLINK_Step() -- CPU_ReadMem(64 bytes @ 0x08003F40) -- Updating C cache (64 bytes @ 0x08003F40) -- Read from C cache (2 bytes @ 0x08003F48) -- CPU_ReadMem(4 bytes @ 0xE0001004) -- Read from C cache (2 bytes @ 0x08003F4A) -- Simulated  returns 0x00 (0003ms, 0449ms total)
T0E24 074:084 JLINK_ReadReg(R15 (PC))  returns 0x08004C78 (0000ms, 0449ms total)
T0E24 074:084 JLINK_ReadReg(XPSR)  returns 0x01000036 (0000ms, 0449ms total)
T0E24 074:084 JLINK_SetBPEx(Addr = 0x08003F48, Type = 0xFFFFFFF2)  returns 0x00000008 (0000ms, 0449ms total)
T0E24 074:084 JLINK_Go() -- CPU_WriteMem(4 bytes @ 0xE0002000) -- CPU_ReadMem(4 bytes @ 0xE0001000) -- CPU_WriteMem(4 bytes @ 0xE0001004) (0005ms, 0454ms total)
T0E24 074:190 JLINK_IsHalted()  returns TRUE (0004ms, 0458ms total)
T0E24 074:194 JLINK_Halt()  returns 0x00 (0000ms, 0454ms total)
T0E24 074:194 JLINK_IsHalted()  returns TRUE (0000ms, 0454ms total)
T0E24 074:194 JLINK_IsHalted()  returns TRUE (0000ms, 0454ms total)
T0E24 074:194 JLINK_IsHalted()  returns TRUE (0000ms, 0454ms total)
T0E24 074:194 JLINK_ReadReg(R15 (PC))  returns 0x08003F48 (0000ms, 0454ms total)
T0E24 074:194 JLINK_ReadReg(XPSR)  returns 0x01000036 (0000ms, 0454ms total)
T0E24 074:194 JLINK_ClrBPEx(BPHandle = 0x00000008)  returns 0x00 (0000ms, 0454ms total)
T0E24 074:194 JLINK_ReadMemU32(0xE000ED30, 0x0001 Items, ...) -- CPU_ReadMem(4 bytes @ 0xE000ED30) - Data: 03 00 00 00  returns 0x01 (0001ms, 0455ms total)
T0E24 074:195 JLINK_ReadMemU32(0xE0001028, 0x0001 Items, ...) -- CPU_ReadMem(4 bytes @ 0xE0001028) - Data: 00 00 00 00  returns 0x01 (0001ms, 0456ms total)
T0E24 074:196 JLINK_ReadMemU32(0xE0001038, 0x0001 Items, ...) -- CPU_ReadMem(4 bytes @ 0xE0001038) - Data: 00 02 00 00  returns 0x01 (0001ms, 0457ms total)
T0E24 074:197 JLINK_ReadMemU32(0xE0001048, 0x0001 Items, ...) -- CPU_ReadMem(4 bytes @ 0xE0001048) - Data: 00 00 00 00  returns 0x01 (0001ms, 0458ms total)
T0E24 074:198 JLINK_ReadMemU32(0xE0001058, 0x0001 Items, ...) -- CPU_ReadMem(4 bytes @ 0xE0001058) - Data: 00 00 00 00  returns 0x01 (0001ms, 0459ms total)
T0E24 074:199 JLINK_ReadReg(R0)  returns 0x00000000 (0000ms, 0459ms total)
T0E24 074:199 JLINK_ReadReg(R1)  returns 0x08003F45 (0000ms, 0459ms total)
T0E24 074:199 JLINK_ReadReg(R2)  returns 0x00000000 (0000ms, 0459ms total)
T0E24 074:199 JLINK_ReadReg(R3)  returns 0x00000000 (0000ms, 0459ms total)
T0E24 074:199 JLINK_ReadReg(R4)  returns 0x00000000 (0000ms, 0459ms total)
T0E24 074:199 JLINK_ReadReg(R5)  returns 0x00000000 (0000ms, 0459ms total)
T0E24 074:199 JLINK_ReadReg(R6)  returns 0x00000000 (0000ms, 0459ms total)
T0E24 074:199 JLINK_ReadReg(R7)  returns 0x00000000 (0000ms, 0459ms total)
T0E24 074:199 JLINK_ReadReg(R8)  returns 0x00000000 (0000ms, 0459ms total)
T0E24 074:199 JLINK_ReadReg(R9)  returns 0x00000000 (0000ms, 0459ms total)
T0E24 074:199 JLINK_ReadReg(R10)  returns 0x00000000 (0000ms, 0459ms total)
T0E24 074:199 JLINK_ReadReg(R11)  returns 0x00000000 (0001ms, 0460ms total)
T0E24 074:200 JLINK_ReadReg(R12)  returns 0x00000000 (0000ms, 0460ms total)
T0E24 074:200 JLINK_ReadReg(R13 (SP))  returns 0x200090B0 (0000ms, 0460ms total)
T0E24 074:200 JLINK_ReadReg(R14)  returns 0x08002CA1 (0000ms, 0460ms total)
T0E24 074:200 JLINK_ReadReg(R15 (PC))  returns 0x08003F48 (0000ms, 0460ms total)
T0E24 074:200 JLINK_ReadReg(XPSR)  returns 0x01000036 (0000ms, 0460ms total)
T0E24 074:200 JLINK_ReadReg(MSP)  returns 0x200090B0 (0000ms, 0460ms total)
T0E24 074:200 JLINK_ReadReg(PSP)  returns 0x20003040 (0000ms, 0460ms total)
T0E24 074:200 JLINK_ReadReg(CFBP)  returns 0x00000000 (0000ms, 0460ms total)
T1A84 074:200 JLINK_ReadMem (0x200090B4, 0x0004 Bytes, ...) -- CPU_ReadMem(64 bytes @ 0x20009080) -- Updating C cache (64 bytes @ 0x20009080) -- Read from C cache (4 bytes @ 0x200090B4) - Data: A1 2C 00 08  returns 0x00 (0002ms, 0462ms total)
T1A84 074:202 JLINK_ReadMem (0x200090B0, 0x0004 Bytes, ...) -- Read from C cache (4 bytes @ 0x200090B0) - Data: A0 0A 00 20  returns 0x00 (0000ms, 0462ms total)
T1A84 074:202 JLINK_ReadMem (0x200090C4, 0x0004 Bytes, ...) -- CPU_ReadMem(64 bytes @ 0x200090C0) -- Updating C cache (64 bytes @ 0x200090C0) -- Read from C cache (4 bytes @ 0x200090C4) - Data: 79 26 00 08  returns 0x00 (0001ms, 0463ms total)
T1A84 074:203 JLINK_ReadMem (0x200090B8, 0x0004 Bytes, ...) -- Read from C cache (4 bytes @ 0x200090B8) - Data: 00 00 00 00  returns 0x00 (0000ms, 0463ms total)
T1A84 074:203 JLINK_ReadMem (0x200090BC, 0x0004 Bytes, ...) -- Read from C cache (4 bytes @ 0x200090BC) - Data: 00 00 00 00  returns 0x00 (0001ms, 0464ms total)
T1A84 074:204 JLINK_ReadMem (0x200090C0, 0x0004 Bytes, ...) -- Read from C cache (4 bytes @ 0x200090C0) - Data: 00 00 00 00  returns 0x00 (0000ms, 0464ms total)
T1A84 074:204 JLINK_ReadMem (0x200090CC, 0x0004 Bytes, ...) -- Read from C cache (4 bytes @ 0x200090CC) - Data: FD FF FF FF  returns 0x00 (0000ms, 0464ms total)
T1A84 074:204 JLINK_ReadMem (0x20003058, 0x0004 Bytes, ...) -- CPU_ReadMem(64 bytes @ 0x20003040) -- Updating C cache (64 bytes @ 0x20003040) -- Read from C cache (4 bytes @ 0x20003058) - Data: 7A 5B 00 08  returns 0x00 (0001ms, 0465ms total)
